10:09:15.736 [restartedMain] INFO  c.f.FrogApplication - [logStarting,55] - Starting FrogApplication using Java 1.8.0_221 on BuXianWanYin with PID 27160 (D:\qkl-zhny\znwl-agriculture-server-no\frog-admin\target\classes started by guaji in D:\qkl-zhny\znwl-agriculture-server-no)
10:09:15.744 [restartedMain] INFO  c.f.FrogApplication - [logStartupProfileInfo,659] - No active profile set, falling back to default profiles: default
10:09:15.769 [background-preinit] INFO  o.h.v.i.util.Version - [<clinit>,21] - HV000001: Hibernate Validator 6.2.0.Final
10:09:22.024 [restartedMain] INFO  o.a.c.h.Http11NioProtocol - [log,173] - Initializing ProtocolHandler ["http-nio-8081"]
10:09:22.025 [restartedMain] INFO  o.a.c.c.StandardService - [log,173] - Starting service [Tomcat]
10:09:22.025 [restartedMain] INFO  o.a.c.c.StandardEngine - [log,173] - Starting Servlet engine: [Apache Tomcat/9.0.54]
10:09:22.307 [restartedMain] INFO  o.a.c.c.C.[.[.[/] - [log,173] - Initializing Spring embedded WebApplicationContext
10:09:27.540 [restartedMain] INFO  o.f.b.s.n.ConnectionManager - [<init>,88] -  all connections, size: 1, list: [ConnectionInfo{host='192.168.1.157', port=20200}]
10:09:27.540 [restartedMain] INFO  o.f.b.s.n.NetworkImp - [start,167] - 
* TRACE INFORMATION:
----------------------------
====> STEP1: try to connect nodes with ecdsa context...

10:09:27.541 [restartedMain] INFO  o.f.b.s.n.NetworkImp - [start,174] - ====> <==== STEP1-1: Load certificates for ecdsa context success..., start connManager with ECDSA sslContext
10:09:27.577 [restartedMain] INFO  o.f.b.s.n.ConnectionManager - [initSslContext,238] -  build ECDSA ssl context with configured certificates 
10:09:30.758 [restartedMain] INFO  o.f.b.s.n.ConnectionManager - [checkConnectionResult,402] -  ssl handshake success 192.168.1.157:20200
10:09:30.761 [nioEventLoopGroup-4-1] INFO  o.f.b.s.n.ChannelHandler - [userEventTriggered,73] -  handshake success, host: 192.168.1.157, port: 20200, ctx: 2027778541
10:09:31.042 [nioEventLoopGroup-4-1] INFO  o.f.b.s.c.ChannelImp - [onResponse,225] -  node: ClientVersion{version='2.11.0', supportedVersion='2.11.0', chainId='1', buildTime='20240520 01:38:47', buildType='Linux/g++/Release', gitBranch='HEAD', gitCommitHash='bee4dda033297443f02774973445d954933db885'}, content: {"id":0,"jsonrpc":"2.0","result":{"Build Time":"20240520 01:38:47","Build Type":"Linux/g++/Release","Chain Id":"1","FISCO-BCOS Version":"2.11.0","Git Branch":"HEAD","Git Commit Hash":"bee4dda033297443f02774973445d954933db885","Supported Version":"2.11.0"}}

10:09:31.044 [nioEventLoopGroup-4-1] INFO  o.f.b.s.c.ChannelImp - [onResponse,233] -  support channel handshake node
10:09:31.051 [nioEventLoopGroup-4-1] INFO  o.f.b.s.c.ChannelImp - [onResponse,309] -  channel protocol handshake success, set socket channel protocol, host: 192.168.1.157:20200, channel protocol: ChannelProtocol [protocol=3, nodeVersion=2.11.0, EnumProtocol=VERSION_3]
10:09:31.073 [restartedMain] INFO  o.f.b.s.c.ChannelImp - [checkConnectionsToStartPeriodTask,126] -  Connect to  nodes: 192.168.1.157:20200, 
10:09:31.073 [restartedMain] INFO  o.f.bcos.sdk.BcosSDK - [<init>,77] - create BcosSDK, start channel success, cryptoType: 0
10:09:31.079 [restartedMain] INFO  o.f.bcos.sdk.BcosSDK - [<init>,87] - create BcosSDK, start channel succ, channelProcessorThreadSize: 16, receiptProcessorThreadSize: 16
10:09:31.091 [restartedMain] INFO  o.f.b.s.s.GroupManagerServiceImpl - [registerBlockNumberNotifyHandler,260] - registerBlockNumberNotifyHandler
10:09:31.093 [restartedMain] INFO  o.f.b.s.s.GroupManagerServiceImpl - [registerTransactionNotifyHandler,282] - registerTransactionNotifyHandler
10:09:31.122 [restartedMain] INFO  o.f.bcos.sdk.BcosSDK - [<init>,98] - create BcosSDK, create groupManagerService success
10:09:31.835 [restartedMain] INFO  o.f.b.s.amop.AmopImp - [sendSubscribe,216] - update subscribe inform 1 peers
10:09:31.847 [restartedMain] INFO  o.f.b.s.amop.AmopImp - [start,188] - amop module started
10:09:31.847 [restartedMain] INFO  o.f.b.s.amop.AmopImp - [sendSubscribe,216] - update subscribe inform 1 peers
10:09:31.848 [restartedMain] INFO  o.f.bcos.sdk.BcosSDK - [<init>,103] - create BcosSDK, create Amop success
10:09:31.870 [restartedMain] INFO  o.f.b.s.c.Client - [build,114] - build client success for group 1, crypto type 0
10:09:31.870 [restartedMain] INFO  o.f.bcos.sdk.BcosSDK - [getClient,178] - create client for group 1 success
10:09:31.876 [restartedMain] INFO  c.f.I.c.SdkBeanConfig - [client,55] - Chain connect successful. Current block number 1448
10:09:32.660 [restartedMain] INFO  c.a.d.p.DruidDataSource - [init,998] - {dataSource-1} inited
10:09:33.911 [restartedMain] INFO  o.q.i.StdSchedulerFactory - [instantiate,1220] - Using default implementation for ThreadExecutor
10:09:33.927 [restartedMain] INFO  o.q.c.SchedulerSignalerImpl - [<init>,61] - Initialized Scheduler Signaller of type: class org.quartz.core.SchedulerSignalerImpl
10:09:33.927 [restartedMain] INFO  o.q.c.QuartzScheduler - [<init>,229] - Quartz Scheduler v.2.3.2 created.
10:09:33.936 [restartedMain] INFO  o.q.c.QuartzScheduler - [initialize,294] - Scheduler meta-data: Quartz Scheduler (v2.3.2) 'RuoyiScheduler' with instanceId 'BuXianWanYin1740535773913'
  Scheduler class: 'org.quartz.core.QuartzScheduler' - running locally.
  NOT STARTED.
  Currently in standby mode.
  Number of jobs executed: 0
  Using thread pool 'org.quartz.simpl.SimpleThreadPool' - with 20 threads.
  Using job-store 'org.springframework.scheduling.quartz.LocalDataSourceJobStore' - which supports persistence. and is clustered.

10:09:33.937 [restartedMain] INFO  o.q.i.StdSchedulerFactory - [instantiate,1374] - Quartz scheduler 'RuoyiScheduler' initialized from an externally provided properties instance.
10:09:33.937 [restartedMain] INFO  o.q.i.StdSchedulerFactory - [instantiate,1378] - Quartz scheduler version: 2.3.2
10:09:33.939 [restartedMain] INFO  o.q.c.QuartzScheduler - [setJobFactory,2293] - JobFactory set to: org.springframework.scheduling.quartz.AdaptableJobFactory@3855b8f2
10:09:34.789 [restartedMain] INFO  c.f.a.s.i.SoilSensorValueServiceImpl - [initializeSensorCommandsFromDB,88] - 加载传感器指令 - 类型：1，指令：01 03 00 00 00 02 C4 0B
10:09:34.790 [restartedMain] INFO  c.f.a.s.i.SoilSensorValueServiceImpl - [initializeSensorCommandsFromDB,88] - 加载传感器指令 - 类型：2，指令：02 03 01 F4 00 08 04 31
10:09:34.790 [restartedMain] INFO  c.f.a.s.i.SoilSensorValueServiceImpl - [initializeSensorCommandsFromDB,88] - 加载传感器指令 - 类型：3，指令：03 03 00 00 00 01 85 E8
10:09:34.790 [restartedMain] INFO  c.f.a.s.i.SoilSensorValueServiceImpl - [initializeSensorCommandsFromDB,88] - 加载传感器指令 - 类型：4，指令：04 03 00 00 00 04 44 5C
10:09:34.790 [restartedMain] INFO  c.f.a.s.i.SoilSensorValueServiceImpl - [initializeSensorCommandsFromDB,88] - 加载传感器指令 - 类型：5，指令：05 03 00 00 00 01 85 8E
10:09:34.790 [restartedMain] INFO  c.f.a.s.i.SoilSensorValueServiceImpl - [initializeSensorCommandsFromDB,88] - 加载传感器指令 - 类型：6，指令：06 03 00 00 00 04 45 BE
10:09:34.790 [restartedMain] INFO  c.f.a.s.i.SoilSensorValueServiceImpl - [initializeSensorCommandsFromDB,88] - 加载传感器指令 - 类型：8，指令：08 03 00 05 00 03 15 53
10:09:39.065 [restartedMain] INFO  o.a.c.h.Http11NioProtocol - [log,173] - Starting ProtocolHandler ["http-nio-8081"]
10:09:39.703 [restartedMain] INFO  c.f.FrogApplication - [logStarted,61] - Started FrogApplication in 24.556 seconds (JVM running for 27.049)
10:09:39.736 [schedule-pool-1] INFO  c.f.a.s.i.SoilSensorValueServiceImpl - [lambda$updateDeviceStatus$0,206] - 设备:1849412138507046913 状态更新为在线
10:09:39.742 [schedule-pool-1] INFO  c.f.a.s.i.SoilSensorValueServiceImpl - [lambda$updateDeviceStatus$0,206] - 设备:1893903556067594242 状态更新为在线
10:09:39.748 [schedule-pool-1] INFO  c.f.a.s.i.SoilSensorValueServiceImpl - [lambda$updateDeviceStatus$0,206] - 设备:1893903642289901569 状态更新为在线
10:09:39.756 [schedule-pool-1] INFO  c.f.a.s.i.SoilSensorValueServiceImpl - [lambda$updateDeviceStatus$0,206] - 设备:1893903642289901576 状态更新为在线
10:09:39.763 [schedule-pool-1] INFO  c.f.a.s.i.SoilSensorValueServiceImpl - [lambda$updateDeviceStatus$0,206] - 设备:1893904084747030522 状态更新为在线
10:09:39.770 [schedule-pool-1] INFO  c.f.a.s.i.SoilSensorValueServiceImpl - [lambda$updateDeviceStatus$0,206] - 设备:1893904151327412225 状态更新为在线
10:09:39.777 [schedule-pool-1] INFO  c.f.a.s.i.SoilSensorValueServiceImpl - [lambda$updateDeviceStatus$0,206] - 设备:8 状态更新为在线
10:09:40.675 [Quartz Scheduler [RuoyiScheduler]] INFO  o.q.c.QuartzScheduler - [start,547] - Scheduler RuoyiScheduler_$_BuXianWanYin1740535773913 started.
10:09:42.849 [http-nio-8081-exec-1] INFO  o.a.c.c.C.[.[.[/] - [log,173] - Initializing Spring DispatcherServlet 'dispatcherServlet'
10:09:49.673 [schedule-pool-2] INFO  c.f.a.s.i.SoilSensorValueServiceImpl - [lambda$updateDeviceStatus$0,206] - 设备:1849412138507046913 状态更新为离线
10:09:49.686 [schedule-pool-2] INFO  c.f.a.s.i.SoilSensorValueServiceImpl - [lambda$updateDeviceStatus$0,206] - 设备:1893903556067594242 状态更新为离线
10:09:49.690 [schedule-pool-2] INFO  c.f.a.s.i.SoilSensorValueServiceImpl - [lambda$updateDeviceStatus$0,206] - 设备:1893903642289901569 状态更新为离线
10:09:49.693 [schedule-pool-2] INFO  c.f.a.s.i.SoilSensorValueServiceImpl - [lambda$updateDeviceStatus$0,206] - 设备:1893903642289901576 状态更新为离线
10:09:49.696 [schedule-pool-2] INFO  c.f.a.s.i.SoilSensorValueServiceImpl - [lambda$updateDeviceStatus$0,206] - 设备:1893904084747030522 状态更新为离线
10:09:49.700 [schedule-pool-2] INFO  c.f.a.s.i.SoilSensorValueServiceImpl - [lambda$updateDeviceStatus$0,206] - 设备:1893904151327412225 状态更新为离线
10:09:49.704 [schedule-pool-2] INFO  c.f.a.s.i.SoilSensorValueServiceImpl - [lambda$updateDeviceStatus$0,206] - 设备:8 状态更新为离线
10:10:39.008 [lettuce-nioEventLoop-5-1] INFO  i.l.c.p.CommandHandler - [log,217] - null Unexpected exception during request: java.io.IOException: 远程主机强迫关闭了一个现有的连接。
java.io.IOException: 远程主机强迫关闭了一个现有的连接。
	at sun.nio.ch.SocketDispatcher.read0(Native Method)
	at sun.nio.ch.SocketDispatcher.read(SocketDispatcher.java:43)
	at sun.nio.ch.IOUtil.readIntoNativeBuffer(IOUtil.java:223)
	at sun.nio.ch.IOUtil.read(IOUtil.java:192)
	at sun.nio.ch.SocketChannelImpl.read(SocketChannelImpl.java:380)
	at io.netty.buffer.PooledByteBuf.setBytes(PooledByteBuf.java:253)
	at io.netty.buffer.AbstractByteBuf.writeBytes(AbstractByteBuf.java:1132)
	at io.netty.channel.socket.nio.NioSocketChannel.doReadBytes(NioSocketChannel.java:350)
	at io.netty.channel.nio.AbstractNioByteChannel$NioByteUnsafe.read(AbstractNioByteChannel.java:151)
	at io.netty.channel.nio.NioEventLoop.processSelectedKey(NioEventLoop.java:719)
	at io.netty.channel.nio.NioEventLoop.processSelectedKeysOptimized(NioEventLoop.java:655)
	at io.netty.channel.nio.NioEventLoop.processSelectedKeys(NioEventLoop.java:581)
	at io.netty.channel.nio.NioEventLoop.run(NioEventLoop.java:493)
	at io.netty.util.concurrent.SingleThreadEventExecutor$4.run(SingleThreadEventExecutor.java:986)
	at io.netty.util.internal.ThreadExecutorMap$2.run(ThreadExecutorMap.java:74)
	at io.netty.util.concurrent.FastThreadLocalRunnable.run(FastThreadLocalRunnable.java:30)
	at java.lang.Thread.run(Thread.java:748)
10:10:39.059 [lettuce-eventExecutorLoop-1-13] INFO  i.l.c.p.ConnectionWatchdog - [log,171] - Reconnecting, last destination was localhost/127.0.0.1:6379
10:10:39.069 [lettuce-nioEventLoop-5-2] INFO  i.l.c.p.ReconnectionHandler - [lambda$null$3,174] - Reconnected to localhost:6379
10:10:44.227 [http-nio-8081-exec-7] INFO  c.f.w.WebSocketServer - [onOpen,33] - 客户端：3584412784070建立连接
10:10:47.078 [schedule-pool-6] INFO  sys-user - [run,55] - [127.0.0.1]内网IP[admin][Success][登录成功]
10:14:54.477 [SpringApplicationShutdownHook] INFO  o.q.c.QuartzScheduler - [standby,585] - Scheduler RuoyiScheduler_$_BuXianWanYin1740535773913 paused.
